!Keysight Technologies N9914A: A.10.33
!Date: Tuesday, 01 October 2019 19:06:40
!Timezone: (UTC-08:00) Pacific Time (US & Canada)
!Model: N9914A
!Serial: MY53104152
!GPS Latitude: 
!GPS Longitude: 
!GPS TimeStamp: 0001-01-01 00:00:00Z
!GPS Seconds Since Last Read: 0
!CHECKSUM:1411844230
!Correction: S11(Rdy)S21(Rdy)S12(Rdy)S22(Rdy)
!S2P File: Measurements:S11,S21,S12,S22:
# Hz S DB R 50
50000000	-0.407810202824683	124.917377725501	-50.340072377508	-176.405222884328	-50.5299470930928	-175.937169761962	-0.429289955415594	124.069434902435	
50700000	-0.422533556258148	124.038989341056	-49.692489066589	178.382560438521	-50.3394742832636	-177.597322471428	-0.443091842045347	123.207714176504	
51400000	-0.43919914459664	123.180772158803	-49.2878519434408	-177.85089273219	-49.1627764401812	-175.775346186838	-0.457044442795569	122.337720456806	
52100000	-0.453358574705189	122.323490631397	-48.4801593002025	178.202749841013	-48.6905680114382	-175.442167834399	-0.473169015250164	121.458804128521	
52800000	-0.472530843526881	121.423132845424	-48.0065254157466	-177.780201514559	-47.5951158409347	-178.471905296783	-0.487959460466659	120.57343872765	
53500000	-0.484305469067132	120.551559838995	-46.7589823355645	-179.923652635884	-46.9358425982283	-177.155776382287	-0.503871262206643	119.671972742629	
54200000	-0.501016283909564	119.648941444958	-46.5763039504732	-179.415993630877	-46.2197306665389	-179.331738829721	-0.51840895478414	118.766132425905	
54900000	-0.517440934709398	118.731692693062	-45.6348659411504	179.085614756356	-45.7957560760804	-179.416512212272	-0.533371290666559	117.859076379291	
55600000	-0.537541672262491	117.823224991287	-45.0739034222846	-179.90534221926	-45.2193371551837	177.411438357713	-0.54835929734711	116.946508041734	
56300000	-0.549799594658417	116.922199020489	-44.5543140915232	178.124421247335	-44.3595923690648	178.268165757508	-0.564458450995082	116.015009301408	
57000000	-0.569273335806511	116.001617753184	-43.8894442628139	178.179657686331	-43.886576917711	177.809108646658	-0.584218585173346	115.094382312883	
57700000	-0.586282685780571	115.066923097248	-43.3340233895825	176.568780794837	-43.0292949140717	178.390906601965	-0.595583968153271	114.161131011602	
58400000	-0.60187705118387	114.10748633763	-42.5196513393829	176.41479863007	-42.4294583219578	176.247459617396	-0.613576255802044	113.205971933262	
59100000	-0.621856427352139	113.165765091707	-41.911170140571	175.353598664693	-41.8623952591206	175.024046981289	-0.630843826790137	112.224301639048	
59800000	-0.639018943399894	112.222980488497	-41.169630307559	174.265037988368	-41.3933027349403	175.085775677157	-0.650011717420177	111.249920487876	
60500000	-0.65644173694401	111.211507151438	-40.7874015735211	175.045399853343	-40.7205841802691	173.814024640921	-0.668492709570803	110.29452019375	
61200000	-0.676884250545811	110.241313564509	-40.1091253141481	173.491730141544	-40.3066702049476	172.121808634907	-0.68634583512707	109.292358746063	
61900000	-0.693255764714503	109.240105505466	-39.6258152334997	172.93939770744	-39.538366618565	172.441419455343	-0.703359736626417	108.303780354232	
62600000	-0.712495420573877	108.252099945388	-38.9654027301954	171.777410830753	-39.0041375417433	171.038348935943	-0.724031782941387	107.284636348176	
63300000	-0.734062962032662	107.236767116378	-38.3710761172194	170.81330083962	-38.3691773222609	170.803780619465	-0.745890910963264	106.248805567691	
64000000	-0.754491660007917	106.209678203434	-37.871834085489	170.039416749513	-37.8162194058716	169.686970519107	-0.765801872003359	105.209236324444	
64700000	-0.776355892348217	105.168987464185	-37.2099482381519	168.411419502752	-37.1937911843779	168.648374608048	-0.786984076015643	104.154829648277	
65400000	-0.797725958798518	104.120074617508	-36.6459295158367	167.615001379504	-36.7434502807051	168.002633436441	-0.806584972437952	103.10824630127	
66100000	-0.82126056498947	103.012557938879	-36.0609938271775	166.688072180928	-36.1823546366392	166.888746351435	-0.827710478394519	102.03387903728	
66800000	-0.845814451234529	101.932306694306	-35.5902382527251	165.335236539817	-35.5440779124907	165.416007968718	-0.853492135479105	100.921521732513	
67500000	-0.868084188840062	100.860777928432	-34.9811658802323	164.44008756623	-34.9797580066037	164.413586631323	-0.875879453572353	99.8387222255393	
68200000	-0.896125094307019	99.7401409276585	-34.413813237888	163.190042471921	-34.4548263452137	163.276661880643	-0.904368278418447	98.6988029599802	
68900000	-0.920520027372804	98.5830064398755	-33.8877253672822	162.00765913312	-33.8342532986952	162.199559446324	-0.929250047331873	97.581137261332	
69600000	-0.942208726317164	97.4763843791747	-33.308248767194	160.896663750604	-33.3077801427633	160.833611967217	-0.951809914843416	96.4359246643731	
70300000	-0.972209033032564	96.3122219743224	-32.7274602812358	159.827073452394	-32.7593921124684	159.313127765525	-0.983240387419725	95.2576754119863	
71000000	-1.00362896254705	95.1337694351535	-32.1523429357292	158.329146248312	-32.2061313711928	158.468070068042	-1.01324909672565	94.062932991915	
71700000	-1.03395174271222	93.9275330330442	-31.6414428205022	156.716661033561	-31.6361895908344	156.942255195302	-1.04284335340494	92.8467340540903	
72400000	-1.06537938656421	92.7077518892727	-31.0738502269225	155.904980264481	-31.0811882590577	155.780946674026	-1.07526315453315	91.6348118417921	
73100000	-1.09599445872124	91.4775340421572	-30.5417143932778	154.21224654156	-30.5197880159982	154.385559928123	-1.10803829254634	90.3943511093418	
73800000	-1.13072494206115	90.2072731352824	-29.9544694551965	152.902008666715	-29.938232387571	152.877876357746	-1.14353784422584	89.0768944707147	
74500000	-1.16826074111933	88.8766439227997	-29.3630279875105	151.183089692029	-29.3849734198006	151.39696745047	-1.18299693638418	87.7704485296432	
75200000	-1.20512172404832	87.6080863808851	-28.8024026274514	149.939398634647	-28.8216677278754	150.012356050972	-1.22139096800067	86.4591812010984	
75900000	-1.24409324840585	86.2432354432236	-28.2678179944031	148.326248654454	-28.2442549716233	148.358617752945	-1.26008988176397	85.1051748786389	
76600000	-1.28858476758834	84.8702814194053	-27.6786765843219	146.787786368372	-27.7177111647037	146.879490117574	-1.30445771641022	83.7142835664101	
77300000	-1.3295196927705	83.4826088400904	-27.1214473270997	145.040973196016	-27.1279675487216	145.17670168099	-1.34812139826008	82.3031635138651	
78000000	-1.37771862537228	82.0895413462218	-26.5680145594674	143.285759156982	-26.5787516493662	143.474514759708	-1.39584177489769	80.8735683972676	
78700000	-1.42502885265608	80.5813421612112	-26.0114285493443	141.661561865951	-25.9938457090124	141.608454372421	-1.43920427603438	79.4530275608619	
79400000	-1.47528326506585	79.0839672109721	-25.4099876807434	139.893773373611	-25.4361504495206	139.895812983098	-1.49413492803725	77.872270100199	
80100000	-1.53222152767069	77.5376597154557	-24.8548444662879	137.983548479599	-24.8607221855786	138.089087543314	-1.55240953968771	76.3118804835505	
80800000	-1.59238310321884	75.946698939322	-24.2557125571212	136.148277791276	-24.2620678356483	136.102871254185	-1.61579971725793	74.7240664469619	
81500000	-1.65257149292293	74.3290235960945	-23.6766877079971	134.064472875005	-23.6917911738158	134.068111410149	-1.67981146068427	73.0988769667537	
82200000	-1.72139468471491	72.6649268978272	-23.1057125075821	132.132076111783	-23.1032944524045	132.156340076692	-1.75082184178166	71.399586296615	
82900000	-1.79229454367652	70.9655128714909	-22.5122508051933	129.991307198854	-22.5100757823437	129.910275957629	-1.82552162838705	69.6580873025273	
83600000	-1.87100683354875	69.193957997336	-21.9342561908179	127.735355462144	-21.9270504841859	127.834679756771	-1.90798465779299	67.8591019380817	
84300000	-1.95452596564894	67.375149332357	-21.3390098408912	125.5296581975	-21.330288255938	125.569215769737	-1.99715190992225	65.9933188882313	
85000000	-2.04346218527448	65.5271407263821	-20.7450252234033	123.209385344127	-20.7334464034925	123.16740825544	-2.09291109090708	64.0807553881606	
85700000	-2.13769991535304	63.630566902813	-20.1405001971029	120.71524002711	-20.1320709198706	120.780530842861	-2.19711552556107	62.1281203741827	
86400000	-2.24116831101859	61.6271737860341	-19.5391374465001	118.191525986033	-19.5404676574528	118.210311824213	-2.30941489080632	60.1030376791116	
87100000	-2.35519017405927	59.5860525208967	-18.935701892768	115.520625234402	-18.9323316843219	115.547301399092	-2.4300165012669	57.9901941292609	
87800000	-2.47994798291399	57.4944439173678	-18.3401978297383	112.883590758542	-18.3313512702852	112.853870438842	-2.56497584985167	55.8245373923669	
88500000	-2.60967536303627	55.3138255490297	-17.725896358527	109.95112596266	-17.7279602281573	109.982317022092	-2.71343898868429	53.5701068949755	
89200000	-2.7603702548716	53.053371975385	-17.1280349764688	107.062399190649	-17.1215925132333	107.011844334758	-2.8707379643706	51.2651460040823	
89900000	-2.91925803706196	50.7601754630922	-16.5111963774774	103.974343347889	-16.5124858134618	103.972503988282	-3.05169064731497	48.8308771132883	
90600000	-3.09793917461454	48.3344066963166	-15.9107040084473	100.707053807066	-15.9066737858192	100.71868586993	-3.24020821892246	46.3694356583658	
91300000	-3.29090745748919	45.8691795298059	-15.3044928099327	97.3876357919613	-15.3044779896348	97.3908713035328	-3.45924929440354	43.7433836026159	
92000000	-3.50558379399521	43.2839698463878	-14.7041337999654	93.9316379661427	-14.7054567837143	93.9214624235323	-3.69640162113207	41.1105642479597	
92700000	-3.74155997959773	40.6634457257543	-14.1050999886759	90.2484817081609	-14.1111129074576	90.2471785903754	-3.96146686855925	38.3354765530411	
93400000	-4.00638242754536	37.9603676920193	-13.5200305627717	86.5358138803047	-13.5148374785916	86.5334637417176	-4.25236607669731	35.4354748153612	
94100000	-4.29603283932164	35.1551875057493	-12.9352344354241	82.4975415696378	-12.9350579581853	82.5254004115957	-4.57999609035619	32.5608677945232	
94800000	-4.60990656631761	32.2915348988949	-12.3672524659987	78.4083881641793	-12.367132550699	78.4800602521451	-4.93969328693703	29.5080097401738	
95500000	-4.97092334195592	29.3802716957253	-11.7979434047018	74.2288806722828	-11.8069656020633	74.2308304755695	-5.34042365710253	26.3164929070091	
96200000	-5.3599288610473	26.363454143289	-11.2491325610201	69.8681760468877	-11.2574770953311	69.8269647869051	-5.79498580003566	23.1268634809658	
96900000	-5.7929350788177	23.3624803709779	-10.7283130055424	65.2540104731556	-10.7310895387058	65.2212559189041	-6.30429329923496	19.9384914992894	
97600000	-6.26581730994428	20.3388513926199	-10.2131485618622	60.4956821395064	-10.2193615097089	60.5416677928735	-6.86497375466797	16.688108423571	
98300000	-6.79463499408108	17.3315491108874	-9.72055660149012	55.6781496351257	-9.72767810765957	55.7133246571406	-7.49083449293878	13.3461561698246	
99000000	-7.37714331877741	14.3612261783194	-9.26072284663742	50.7090966540985	-9.26600368608175	50.73916244888	-8.18671235535845	10.043433492535	
99700000	-8.0152491944282	11.4285252039274	-8.82244441852522	45.6232039031307	-8.823920247805	45.6918408234051	-8.96549615544131	6.77728772472757	
100400000	-8.71254694538012	8.57628476820067	-8.40329277623147	40.4424913305145	-8.41226764046948	40.5382877502648	-9.83755562784956	3.5399083161302	
101100000	-9.46790547844059	5.83909596320941	-8.01971354355444	35.2021275173378	-8.03027249591472	35.2658880337818	-10.8016923996512	0.519004140000585	
101800000	-10.2869897152158	3.30912854983154	-7.66432625505154	29.8678615806344	-7.67517428434546	29.9592469297066	-11.8942886015463	-2.32073904667694	
102500000	-11.1729315603779	1.01064803950182	-7.33574862872382	24.5198441041196	-7.35305633496472	24.607396288872	-13.1131716466437	-4.87795150562567	
103200000	-12.1261468520665	-1.02293911957974	-7.03995496454136	19.1291701736899	-7.05245088067696	19.2178848673615	-14.4977427070711	-7.1170273846776	
103900000	-13.1314578625488	-2.7885291088447	-6.76811359735844	13.7401692343394	-6.78495430758089	13.8230422118847	-16.0508929751379	-8.8157689528834	
104600000	-14.2112630881544	-4.18487098668787	-6.52840930549996	8.36932213241429	-6.5378905744936	8.44917902804528	-17.8376596970105	-9.72502174666872	
105300000	-15.3586380261306	-5.30850917955632	-6.31200425842132	3.05060786223422	-6.32342109739375	3.09749301128921	-19.8938041752982	-9.59748852682033	
106000000	-16.5957017308425	-5.9943989288165	-6.12054100639695	-2.21657258233087	-6.12567646394044	-2.21576861328383	-22.2965671884729	-7.7609168809718	
106700000	-17.9070630622675	-6.36792036654896	-5.94544351808541	-7.42058115956462	-5.95639787192663	-7.39812091247593	-25.3442827874801	-2.23053260896764	
107400000	-19.3319120058398	-6.30171109951531	-5.79110097500517	-12.629500180369	-5.80602813727463	-12.5742130896186	-29.0123743616093	11.233022836022	
108100000	-20.823860051954	-5.52612658825836	-5.65624067259705	-17.8289011519392	-5.67124265745837	-17.7278557486642	-32.2231876792773	42.4557934494488	
108800000	-22.5098989591651	-4.95131314113832	-5.54171786264883	-22.8936099832704	-5.55202425876405	-22.8190887109832	-31.68040227155	81.0324885628723	
109500000	-24.4480129585669	-3.22431534643264	-5.43634973825899	-27.8280576619816	-5.44918554485793	-27.7893039085424	-28.8423311219135	104.304708172471	
110200000	-26.8408653063143	-1.20275096730904	-5.34404021760589	-32.8191901467894	-5.35658152178203	-32.7227752834647	-26.3787739536492	115.173890996403	
110900000	-29.681549045958	2.12921803634331	-5.26406007672709	-37.7795298536177	-5.27674894434415	-37.672182361605	-24.4740649562173	120.415147744426	
111600000	-33.924972247365	10.5401851297452	-5.19765139747006	-42.501297124648	-5.208585049069	-42.4793755379975	-22.9921820240008	124.015432653139	
112300000	-40.9754405112021	40.4675544480985	-5.13498850459802	-47.3376622965518	-5.14764642643235	-47.2326399145989	-21.7907845628203	126.429957386827	
113000000	-40.9957787290172	123.903638074966	-5.08106431579163	-52.0991188082663	-5.09523545640451	-52.0017381925122	-20.8110500170032	128.090072970317	
113700000	-33.7210360436655	151.561226157067	-5.0431658041031	-56.7017738329075	-5.05593389110351	-56.6371090773332	-19.9156549030427	129.504104656888	
114400000	-29.6282916014031	157.961760063372	-5.00240818743145	-61.4049490394633	-5.01852625667961	-61.3227944742758	-19.1437427103526	130.913973260655	
115100000	-26.8323079126404	160.58376565662	-4.97674065462957	-65.9688010583228	-4.98932140031921	-65.8930195150174	-18.4567618372412	131.940616043238	
115800000	-24.5054787967408	161.739250581465	-4.9516530549493	-70.5361787699772	-4.9623137744847	-70.5191078986583	-17.8294514274072	132.726825056758	
116500000	-22.8180806090505	161.826295136578	-4.93623656870353	-75.025243907308	-4.94584050526	-75.0143453391734	-17.2147918117442	133.569638465613	
117200000	-21.2724753777831	161.246257314845	-4.92237549467767	-79.5355891705792	-4.93367039110665	-79.5399117186787	-16.6444143559283	134.084253535312	
117900000	-20.067878219942	160.546185851318	-4.91768906354304	-84.0128716379556	-4.92955278492159	-83.9903024943915	-16.1221614161194	134.520630207353	
118600000	-18.9549527931309	159.56353760879	-4.91458929958752	-88.4751135439378	-4.92610188698728	-88.4602837561475	-15.621458918058	134.60580967327	
119300000	-18.0413184460466	158.366453865259	-4.92031236217591	-92.8607596402335	-4.93406774344025	-92.8655194718129	-15.1688447449949	134.680796282283	
120000000	-17.1895681167902	156.892145515793	-4.9271130945811	-97.3546824563371	-4.93926665185044	-97.2595024067932	-14.7109202452606	134.522351954741	
120700000	-16.4580553619908	155.422059081355	-4.94214965363633	-101.65268814396	-4.95174268979277	-101.627132999564	-14.3231092556222	134.171454193265	
121400000	-15.8209707838853	153.843988279728	-4.95480964045649	-106.126564891887	-4.96788618464811	-105.966391908907	-13.9165114363278	133.897487533044	
122100000	-15.2027572674562	152.442422875149	-4.97689909624477	-110.413740421008	-4.98491045167835	-110.336427216692	-13.5873961353041	133.323495619876	
122800000	-14.7508162807847	150.60780300835	-4.9997564494121	-114.710320742399	-5.01240577990005	-114.692267274145	-13.2937836348389	132.708618035332	
123500000	-14.3033373791665	148.932388909756	-5.02873841549771	-119.108839119673	-5.03999229802147	-119.005885394943	-12.9936918610398	132.136701879556	
124200000	-13.9017465695777	147.517581032232	-5.0599085452376	-123.359701619645	-5.06774555929748	-123.334276690545	-12.75643402051	131.375746561913	
124900000	-13.6293319206993	145.779109480753	-5.09373781493504	-127.651667362765	-5.10455100754529	-127.699788342171	-12.5749580135881	130.633992243789	
125600000	-13.3602941369762	144.369275292989	-5.12812703820918	-132.053704167653	-5.14024096749763	-131.970226997554	-12.3689109246425	130.154864009965	
126300000	-13.1057215650007	143.100119680325	-5.1714672404649	-136.316136050472	-5.1800221852022	-136.303701483626	-12.2403683957802	129.497584864265	
127000000	-12.9779614207122	141.814075899858	-5.21397324391069	-140.631881679525	-5.22384185221154	-140.649694309752	-12.1414555002843	128.912462005631	
127700000	-12.8561313716927	140.702252934279	-5.26012388949706	-145.036693622665	-5.27665682569619	-145.0073478768	-12.0634636581446	128.556999000449	
128400000	-12.7496555535384	139.952359687432	-5.31055629051214	-149.461443590358	-5.32702932517196	-149.334475295844	-11.9829683608578	128.515689406261	
129100000	-12.6908824078821	139.611805305849	-5.37412911124209	-153.802253343716	-5.37982829236792	-153.734522467475	-11.9524783057411	128.420157536492	
129800000	-12.6841398348973	139.230629429424	-5.43392284072253	-158.181182653421	-5.44215250903565	-158.212869342013	-11.9461553721774	128.624419852616	
130500000	-12.6853001299375	139.329598034866	-5.50015745674855	-162.662141639891	-5.50880305279197	-162.690460829834	-11.9609320356737	129.096209518265	
131200000	-12.6805980645837	139.774005392799	-5.57318790650446	-167.20312590426	-5.58613124490783	-167.143212708357	-11.9358914413083	130.08647181961	
131900000	-12.6484375063441	140.700597862549	-5.6577776416766	-171.748358731315	-5.67061666567574	-171.653619510992	-11.8876319021624	131.288853954812	
132600000	-12.6159256826265	142.180225407882	-5.75469436573115	-176.285282030311	-5.75899780515164	-176.22725775957	-11.8438893177488	132.733861216572	
133300000	-12.5608503074047	143.778341382004	-5.8543816192497	179.152556824337	-5.86732809053089	179.17444911468	-11.7565432501208	134.415406669101	
134000000	-12.4393787343693	145.68912080918	-5.97152081320115	174.47177124828	-5.9808304288328	174.479277307029	-11.6219871481048	136.381068101278	
134700000	-12.2453204807104	147.958985847225	-6.10445755762903	169.751822021717	-6.11137632706907	169.781208643047	-11.4241165259317	138.417037135703	
135400000	-11.9478030987523	150.198853653149	-6.24622943296325	165.014735608598	-6.25754639385666	165.072287555089	-11.1405354104563	140.5520781092	
136100000	-11.5660722044405	152.374022914806	-6.40924460097495	160.270792857592	-6.41976974020504	160.354102937355	-10.7758884786593	142.660136913264	
136800000	-11.1066129364847	154.351456879579	-6.58565498883831	155.506944531099	-6.59960422885168	155.640315195323	-10.3349667760306	144.438796794159	
137500000	-10.5972616294679	155.93499934174	-6.78929613540983	150.776115012961	-6.79646829476756	150.880957993508	-9.86208553922117	145.883586750055	
138200000	-10.0470740350323	157.077970967188	-7.00580406427124	146.055323818769	-7.01227049388869	146.122128703438	-9.35271103294466	146.88074555641	
138900000	-9.4815442319302	157.636970488416	-7.24350861463873	141.32314604733	-7.25218386664027	141.431095419407	-8.82035214882538	147.434385999467	
139600000	-8.89821618476298	157.784192167314	-7.50325351945871	136.653678757142	-7.51235031861348	136.709961922619	-8.28498481726715	147.588830304373	
